
T3CD0 006:287 SEGGER J-Link V6.32i Log File (0001ms, 0003ms total)
T3CD0 006:287 DLL Compiled: Jul 24 2018 15:19:55 (0001ms, 0003ms total)
T3CD0 006:287 Logging started @ 2026-07-27 11:41 (0001ms, 0003ms total)
T3CD0 006:288 JLINK_SetWarnOutHandler(...) (0000ms, 0003ms total)
T3CD0 006:288 JLINK_OpenEx(...)
Firmware: J-Link V9 compiled May  7 2021 16:26:12
Hardware: V9.40
S/N: 69408121
Feature(s): RDI, GDB, FlashDL, FlashBP, JFlash
TELNET listener socket opened on port 19021WEBSRV 
Starting webserver (0016ms, 0019ms total)
T3CD0 006:288 WEBSRV Webserver running on local port 19080 (0016ms, 0019ms total)
T3CD0 006:288   returns O.K. (0016ms, 0019ms total)
T3CD0 006:304 JLINK_GetEmuCaps()  returns 0xB9FF7BBF (0000ms, 0019ms total)
T3CD0 006:305 JLINK_TIF_GetAvailable(...) (0000ms, 0019ms total)
T3CD0 006:305 JLINK_SetErrorOutHandler(...) (0000ms, 0019ms total)
T3CD0 006:305 JLINK_ExecCommand("ProjectFile = "C:\Users\rll\Documents\Codex\2026-07-20\b-na\workspaces\F4_PM_work\MDK-ARM\JLinkSettings.ini"", ...).   returns 0x00 (0003ms, 0022ms total)
T3CD0 006:314 JLINK_ExecCommand("Device = STM32F429IGTx", ...). Device "STM32F429IG" selected.  returns 0x00 (0005ms, 0027ms total)
T3CD0 006:319 JLINK_ExecCommand("DisableConnectionTimeout", ...).   returns 0x01 (0000ms, 0027ms total)
T3CD0 006:319 JLINK_GetHardwareVersion()  returns 0x16F30 (0000ms, 0027ms total)
T3CD0 006:319 JLINK_GetDLLVersion()  returns 63209 (0000ms, 0027ms total)
T3CD0 006:319 JLINK_GetFirmwareString(...) (0000ms, 0027ms total)
T3CD0 006:329 JLINK_GetDLLVersion()  returns 63209 (0000ms, 0027ms total)
T3CD0 006:329 JLINK_GetCompileDateTime() (0000ms, 0027ms total)
T3CD0 006:330 JLINK_GetFirmwareString(...) (0000ms, 0027ms total)
T3CD0 006:332 JLINK_GetHardwareVersion()  returns 0x16F30 (0000ms, 0027ms total)
T3CD0 006:339 JLINK_TIF_Select(JLINKARM_TIF_SWD)  returns 0x00 (0002ms, 0029ms total)
T3CD0 006:341 JLINK_SetSpeed(5000) (0000ms, 0029ms total)
T3CD0 006:341 JLINK_GetId() >0x10B TIF>Found SW-DP with ID 0x2BA01477 >0x0D TIF> >0x28 TIF> >0x0D TIF> >0x28 TIF> >0x0D TIF> >0x28 TIF> >0x0D TIF> >0x28 TIF> >0x0D TIF> >0x21 TIF> >0x0D TIF> >0x28 TIF> >0x0D TIF> >0x28 TIF> >0x0D TIF> >0x28 TIF> >0x0D TIF> >0x21 TIF> >0x0D TIF> >0x21 TIF> >0x0D TIF> >0x28 TIF> >0x0D TIF> >0x21 TIF> >0x0D TIF> >0x21 TIF> >0x0D TIF> >0x28 TIF> >0x0D TIF> >0x21 TIF> >0x0D TIF> >0x21 TIF> >0x0D TIF> >0x28 TIF> >0x0D TIF> >0x21 TIF> >0x0D TIF> >0x21 TIF> >0x0D TIF> >0x28 TIF>
 >0x0D TIF> >0x21 TIF> >0x0D TIF> >0x21 TIF> >0x0D TIF> >0x28 TIF> >0x0D TIF> >0x21 TIF> >0x0D TIF> >0x21 TIF> >0x0D TIF> >0x28 TIF> >0x0D TIF> >0x21 TIF> >0x0D TIF> >0x21 TIF> >0x10B TIF>Found SW-DP with ID 0x2BA01477 >0x0D TIF> >0x28 TIF> >0x0D TIF> >0x28 TIF> >0x0D TIF> >0x28 TIF> >0x0D TIF> >0x28 TIF> >0x0D TIF> >0x21 TIF> >0x0D TIF> >0x28 TIF>Scanning AP map to find all available APs >0x0D TIF> >0x28 TIF> >0x0D TIF> >0x21 TIF> >0x0D TIF> >0x21 TIF> >0x0D TIF> >0x28 TIF> >0x0D TIF> >0x21 TIF>
 >0x0D TIF> >0x21 TIF>AP[1]: Stopped AP scan as end of AP map has been reachedAP[0]: AHB-AP (IDR: 0x24770011)Iterating through AP map to find AHB-AP to use >0x42 TIF> >0x28 TIF> >0x0D TIF> >0x28 TIF> >0x0D TIF> >0x21 TIF> >0x0D TIF> >0x21 TIF> >0x42 TIF> >0x28 TIF> >0x0D TIF> >0x28 TIF> >0x0D TIF> >0x28 TIF> >0x0D TIF> >0x21 TIF> >0x0D TIF> >0x21 TIF>AP[0]: Core foundAP[0]: AHB-AP ROM base: 0xE00FF000 >0x0D TIF> >0x28 TIF> >0x0D TIF> >0x28 TIF> >0x0D TIF> >0x28 TIF> >0x0D TIF> >0x21 TIF> >0x0D TIF>
 >0x21 TIF>CPUID register: 0x410FC241. Implementer code: 0x41 (ARM)Found Cortex-M4 r0p1, Little endian. -- Max. mem block: 0x00011028 -- CPU_ReadMem(4 bytes @ 0xE000EDF0) -- CPU_WriteMem(4 bytes @ 0xE000EDF0) -- CPU_ReadMem(4 bytes @ 0xE0002000)FPUnit: 6 code (BP) slots and 2 literal slots -- CPU_ReadMem(4 bytes @ 0xE000EDFC) -- CPU_WriteMem(4 bytes @ 0xE000EDFC) -- CPU_ReadMem(4 bytes @ 0xE0001000) -- CPU_WriteMem(4 bytes @ 0xE0001000) -- CPU_ReadMem(4 bytes @ 0xE000ED88)
 -- CPU_WriteMem(4 bytes @ 0xE000ED88) -- CPU_ReadMem(4 bytes @ 0xE000ED88) -- CPU_WriteMem(4 bytes @ 0xE000ED88)CoreSight components:ROMTbl[0] @ E00FF000 -- CPU_ReadMem(16 bytes @ 0xE00FF000) -- CPU_ReadMem(16 bytes @ 0xE000EFF0) -- CPU_ReadMem(16 bytes @ 0xE000EFE0)ROMTbl[0][0]: E000E000, CID: B105E00D, PID: 000BB00C SCS-M7 -- CPU_ReadMem(16 bytes @ 0xE0001FF0) -- CPU_ReadMem(16 bytes @ 0xE0001FE0)ROMTbl[0][1]: E0001000, CID: B105E00D, PID: 003BB002 DWT -- CPU_ReadMem(16 bytes @ 0xE0002FF0)
 -- CPU_ReadMem(16 bytes @ 0xE0002FE0)ROMTbl[0][2]: E0002000, CID: B105E00D, PID: 002BB003 FPB -- CPU_ReadMem(16 bytes @ 0xE0000FF0) -- CPU_ReadMem(16 bytes @ 0xE0000FE0)ROMTbl[0][3]: E0000000, CID: B105E00D, PID: 003BB001 ITM -- CPU_ReadMem(16 bytes @ 0xE00FF010) -- CPU_ReadMem(16 bytes @ 0xE0040FF0) -- CPU_ReadMem(16 bytes @ 0xE0040FE0)ROMTbl[0][4]: E0040000, CID: B105900D, PID: 000BB9A1 TPIU -- CPU_ReadMem(16 bytes @ 0xE0041FF0) -- CPU_ReadMem(16 bytes @ 0xE0041FE0)
ROMTbl[0][5]: E0041000, CID: B105900D, PID: 000BB925 ETM >0x0D TIF> >0x21 TIF>  returns 0x2BA01477 (0199ms, 0228ms total)
T3CD0 006:540 JLINK_GetDLLVersion()  returns 63209 (0000ms, 0228ms total)
T3CD0 006:540 JLINK_CORE_GetFound()  returns 0xE0000FF (0000ms, 0228ms total)
T3CD0 006:540 JLINK_GetDebugInfo(0x100 = JLINKARM_ROM_TABLE_ADDR_INDEX) -- Value=0xE00FF000  returns 0x00 (0000ms, 0228ms total)
T3CD0 006:543 JLINK_GetDebugInfo(0x100 = JLINKARM_ROM_TABLE_ADDR_INDEX) -- Value=0xE00FF000  returns 0x00 (0000ms, 0228ms total)
T3CD0 006:543 JLINK_GetDebugInfo(0x101 = JLINKARM_DEBUG_INFO_ETM_ADDR_INDEX) -- Value=0xE0041000  returns 0x00 (0000ms, 0228ms total)
T3CD0 006:543 JLINK_ReadMemEx(0xE0041FD0, 0x0020 Bytes, ..., Flags = 0x02000004) -- CPU_ReadMem(32 bytes @ 0xE0041FD0) - Data: 04 00 00 00 00 00 00 00 00 00 00 00 00 00 00 00 ...  returns 0x20 (0001ms, 0229ms total)
T3CD0 006:544 JLINK_GetDebugInfo(0x102 = JLINKARM_DEBUG_INFO_MTB_ADDR_INDEX) -- Value=0x00000000  returns 0x00 (0000ms, 0229ms total)
T3CD0 006:544 JLINK_GetDebugInfo(0x103 = JLINKARM_DEBUG_INFO_TPIU_ADDR_INDEX) -- Value=0xE0040000  returns 0x00 (0000ms, 0229ms total)
T3CD0 006:544 JLINK_GetDebugInfo(0x104 = JLINKARM_DEBUG_INFO_ITM_ADDR_INDEX) -- Value=0xE0000000  returns 0x00 (0000ms, 0229ms total)
T3CD0 006:544 JLINK_GetDebugInfo(0x105 = JLINKARM_DEBUG_INFO_DWT_ADDR_INDEX) -- Value=0xE0001000  returns 0x00 (0000ms, 0229ms total)
T3CD0 006:544 JLINK_GetDebugInfo(0x106 = JLINKARM_DEBUG_INFO_FPB_ADDR_INDEX) -- Value=0xE0002000  returns 0x00 (0000ms, 0229ms total)
T3CD0 006:544 JLINK_GetDebugInfo(0x107 = JLINKARM_DEBUG_INFO_NVIC_ADDR_INDEX) -- Value=0xE000E000  returns 0x00 (0000ms, 0229ms total)
T3CD0 006:544 JLINK_GetDebugInfo(0x10C = JLINKARM_DEBUG_INFO_DBG_ADDR_INDEX) -- Value=0xE000EDF0  returns 0x00 (0000ms, 0229ms total)
T3CD0 006:544 JLINK_GetDebugInfo(0x01 = Unknown) -- Value=0x00000001  returns 0x00 (0000ms, 0229ms total)
T3CD0 006:544 JLINK_ReadMemU32(0xE000ED00, 0x0001 Items, ...) -- CPU_ReadMem(4 bytes @ 0xE000ED00) - Data: 41 C2 0F 41  returns 0x01 (0000ms, 0229ms total)
T3CD0 006:544 JLINK_GetDebugInfo(0x10F = JLINKARM_DEBUG_INFO_HAS_CORTEX_M_SECURITY_EXT_INDEX) -- Value=0x00000000  returns 0x00 (0000ms, 0229ms total)
T3CD0 006:544 JLINK_SetResetType(JLINKARM_CM3_RESET_TYPE_NORMAL)  returns JLINKARM_CM3_RESET_TYPE_NORMAL (0000ms, 0229ms total)
T3CD0 006:544 JLINK_Reset() -- CPU is running -- CPU_WriteMem(4 bytes @ 0xE000EDF0) -- CPU is running -- CPU_WriteMem(4 bytes @ 0xE000EDFC)Reset: Halt core after reset via DEMCR.VC_CORERESET. >0x35 TIF>Reset: Reset device via AIRCR.SYSRESETREQ. -- CPU is running -- CPU_WriteMem(4 bytes @ 0xE000ED0C) >0x0D TIF> >0x28 TIF> -- CPU_ReadMem(4 bytes @ 0xE000EDF0) -- CPU_ReadMem(4 bytes @ 0xE000EDF0) -- CPU is running -- CPU_WriteMem(4 bytes @ 0xE000EDF0) -- CPU is running -- CPU_WriteMem(4 bytes @ 0xE000EDFC)
 -- CPU_ReadMem(4 bytes @ 0xE000EDF0) -- CPU_WriteMem(4 bytes @ 0xE0002000) -- CPU_ReadMem(4 bytes @ 0xE000EDFC) -- CPU_ReadMem(4 bytes @ 0xE0001000) (0071ms, 0300ms total)
T3CD0 006:615 JLINK_Halt()  returns 0x00 (0000ms, 0300ms total)
T3CD0 006:615 JLINK_ReadMemU32(0xE000EDF0, 0x0001 Items, ...) -- CPU_ReadMem(4 bytes @ 0xE000EDF0) - Data: 03 00 03 00  returns 0x01 (0000ms, 0300ms total)
T3CD0 006:615 JLINK_WriteU32(0xE000EDF0, 0xA05F0003) -- CPU_WriteMem(4 bytes @ 0xE000EDF0)  returns 0x00 (0001ms, 0301ms total)
T3CD0 006:616 JLINK_WriteU32(0xE000EDFC, 0x01000000) -- CPU_WriteMem(4 bytes @ 0xE000EDFC)  returns 0x00 (0000ms, 0301ms total)
T3CD0 006:622 JLINK_GetHWStatus(...)  returns 0x00 (0000ms, 0301ms total)
T3CD0 006:625 JLINK_GetNumBPUnits(Type = 0xFFFFFF00)  returns 0x06 (0000ms, 0301ms total)
T3CD0 006:625 JLINK_GetNumBPUnits(Type = 0xF0)  returns 0x2000 (0000ms, 0301ms total)
T3CD0 006:625 JLINK_GetNumWPUnits()  returns 0x04 (0000ms, 0301ms total)
T3CD0 006:629 JLINK_GetSpeed()  returns 0xFA0 (0000ms, 0301ms total)
T3CD0 006:631 JLINK_ReadMemU32(0xE000E004, 0x0001 Items, ...) -- CPU_ReadMem(4 bytes @ 0xE000E004) - Data: 02 00 00 00  returns 0x01 (0000ms, 0301ms total)
T3CD0 006:631 JLINK_ReadMemU32(0xE000E004, 0x0001 Items, ...) -- CPU_ReadMem(4 bytes @ 0xE000E004) - Data: 02 00 00 00  returns 0x01 (0001ms, 0302ms total)
T3CD0 006:632 JLINK_WriteMemEx(0xE0001000, 0x001C Bytes, ..., Flags = 0x02000004) - Data: 01 00 00 00 00 00 00 00 00 00 00 00 00 00 00 00 ... -- CPU_WriteMem(28 bytes @ 0xE0001000)  returns 0x1C (0001ms, 0303ms total)
T3CD0 006:633 JLINK_Halt()  returns 0x00 (0000ms, 0303ms total)
T3CD0 006:633 JLINK_IsHalted()  returns TRUE (0000ms, 0303ms total)
T3CD0 006:636 JLINK_WriteMem(0x20000000, 0x0180 Bytes, ...) - Data: 00 BE 0A E0 0D 78 2D 06 68 40 08 24 40 00 00 D3 ... -- CPU_WriteMem(384 bytes @ 0x20000000)  returns 0x180 (0003ms, 0306ms total)
T3CD0 006:639 JLINK_WriteReg(R0, 0x08000000)  returns 0x00 (0000ms, 0306ms total)
T3CD0 006:639 JLINK_WriteReg(R1, 0x017D7840)  returns 0x00 (0000ms, 0306ms total)
T3CD0 006:639 JLINK_WriteReg(R2, 0x00000001)  returns 0x00 (0000ms, 0306ms total)
T3CD0 006:639 JLINK_WriteReg(R3, 0x00000000)  returns 0x00 (0000ms, 0306ms total)
T3CD0 006:639 JLINK_WriteReg(R4, 0x00000000)  returns 0x00 (0000ms, 0306ms total)
T3CD0 006:639 JLINK_WriteReg(R5, 0x00000000)  returns 0x00 (0000ms, 0306ms total)
T3CD0 006:639 JLINK_WriteReg(R6, 0x00000000)  returns 0x00 (0000ms, 0306ms total)
T3CD0 006:639 JLINK_WriteReg(R7, 0x00000000)  returns 0x00 (0000ms, 0306ms total)
T3CD0 006:639 JLINK_WriteReg(R8, 0x00000000)  returns 0x00 (0000ms, 0306ms total)
T3CD0 006:639 JLINK_WriteReg(R9, 0x2000017C)  returns 0x00 (0000ms, 0306ms total)
T3CD0 006:639 JLINK_WriteReg(R10, 0x00000000)  returns 0x00 (0000ms, 0306ms total)
T3CD0 006:639 JLINK_WriteReg(R11, 0x00000000)  returns 0x00 (0000ms, 0306ms total)
T3CD0 006:639 JLINK_WriteReg(R12, 0x00000000)  returns 0x00 (0000ms, 0306ms total)
T3CD0 006:639 JLINK_WriteReg(R13 (SP), 0x20001000)  returns 0x00 (0000ms, 0306ms total)
T3CD0 006:639 JLINK_WriteReg(R14, 0x20000001)  returns 0x00 (0000ms, 0306ms total)
T3CD0 006:639 JLINK_WriteReg(R15 (PC), 0x20000054)  returns 0x00 (0000ms, 0306ms total)
T3CD0 006:639 JLINK_WriteReg(XPSR, 0x01000000)  returns 0x00 (0000ms, 0306ms total)
T3CD0 006:639 JLINK_WriteReg(MSP, 0x20001000)  returns 0x00 (0000ms, 0306ms total)
T3CD0 006:639 JLINK_WriteReg(PSP, 0x20001000)  returns 0x00 (0000ms, 0306ms total)
T3CD0 006:639 JLINK_WriteReg(CFBP, 0x00000000)  returns 0x00 (0000ms, 0306ms total)
T3CD0 006:639 JLINK_SetBPEx(Addr = 0x20000000, Type = 0xFFFFFFF2) -- CPU_ReadMem(2 bytes @ 0x20000000)  returns 0x00000001 (0001ms, 0307ms total)
T3CD0 006:640 JLINK_Go() -- CPU_WriteMem(2 bytes @ 0x20000000) -- CPU_ReadMem(4 bytes @ 0xE0001000) -- CPU_WriteMem(4 bytes @ 0xE0002008) -- CPU_WriteMem(4 bytes @ 0xE000200C) -- CPU_WriteMem(4 bytes @ 0xE0002010) -- CPU_WriteMem(4 bytes @ 0xE0002014) -- CPU_WriteMem(4 bytes @ 0xE0002018) -- CPU_WriteMem(4 bytes @ 0xE000201C) -- CPU_WriteMem(4 bytes @ 0xE0001004) (0005ms, 0312ms total)
T3CD0 006:645 JLINK_IsHalted() -- CPU_ReadMem(2 bytes @ 0x20000000)  returns TRUE (0003ms, 0315ms total)
T3CD0 006:648 JLINK_ReadReg(R15 (PC))  returns 0x20000000 (0000ms, 0312ms total)
T3CD0 006:648 JLINK_ClrBPEx(BPHandle = 0x00000001)  returns 0x00 (0000ms, 0312ms total)
T3CD0 006:648 JLINK_ReadReg(R0)  returns 0x00000000 (0000ms, 0312ms total)
T3CD0 006:649 JLINK_WriteReg(R0, 0x08000000)  returns 0x00 (0000ms, 0312ms total)
T3CD0 006:649 JLINK_WriteReg(R1, 0x00004000)  returns 0x00 (0000ms, 0312ms total)
T3CD0 006:649 JLINK_WriteReg(R2, 0x000000FF)  returns 0x00 (0000ms, 0312ms total)
T3CD0 006:649 JLINK_WriteReg(R3, 0x00000000)  returns 0x00 (0000ms, 0312ms total)
T3CD0 006:649 JLINK_WriteReg(R4, 0x00000000)  returns 0x00 (0000ms, 0312ms total)
T3CD0 006:649 JLINK_WriteReg(R5, 0x00000000)  returns 0x00 (0000ms, 0312ms total)
T3CD0 006:649 JLINK_WriteReg(R6, 0x00000000)  returns 0x00 (0000ms, 0312ms total)
T3CD0 006:649 JLINK_WriteReg(R7, 0x00000000)  returns 0x00 (0000ms, 0312ms total)
T3CD0 006:649 JLINK_WriteReg(R8, 0x00000000)  returns 0x00 (0000ms, 0312ms total)
T3CD0 006:649 JLINK_WriteReg(R9, 0x2000017C)  returns 0x00 (0000ms, 0312ms total)
T3CD0 006:649 JLINK_WriteReg(R10, 0x00000000)  returns 0x00 (0000ms, 0312ms total)
T3CD0 006:649 JLINK_WriteReg(R11, 0x00000000)  returns 0x00 (0000ms, 0312ms total)
T3CD0 006:649 JLINK_WriteReg(R12, 0x00000000)  returns 0x00 (0000ms, 0312ms total)
T3CD0 006:649 JLINK_WriteReg(R13 (SP), 0x20001000)  returns 0x00 (0000ms, 0312ms total)
T3CD0 006:649 JLINK_WriteReg(R14, 0x20000001)  returns 0x00 (0000ms, 0312ms total)
T3CD0 006:649 JLINK_WriteReg(R15 (PC), 0x20000020)  returns 0x00 (0000ms, 0312ms total)
T3CD0 006:649 JLINK_WriteReg(XPSR, 0x01000000)  returns 0x00 (0000ms, 0312ms total)
T3CD0 006:649 JLINK_WriteReg(MSP, 0x20001000)  returns 0x00 (0000ms, 0312ms total)
T3CD0 006:649 JLINK_WriteReg(PSP, 0x20001000)  returns 0x00 (0000ms, 0312ms total)
T3CD0 006:649 JLINK_WriteReg(CFBP, 0x00000000)  returns 0x00 (0000ms, 0312ms total)
T3CD0 006:649 JLINK_SetBPEx(Addr = 0x20000000, Type = 0xFFFFFFF2)  returns 0x00000002 (0000ms, 0312ms total)
T3CD0 006:649 JLINK_Go() -- CPU_ReadMem(4 bytes @ 0xE0001000) (0002ms, 0314ms total)
T3CD0 006:651 JLINK_IsHalted() -- CPU_ReadMem(2 bytes @ 0x20000000)  returns TRUE (0004ms, 0318ms total)
T3CD0 006:655 JLINK_ReadReg(R15 (PC))  returns 0x20000000 (0000ms, 0314ms total)
T3CD0 006:655 JLINK_ClrBPEx(BPHandle = 0x00000002)  returns 0x00 (0000ms, 0314ms total)
T3CD0 006:655 JLINK_ReadReg(R0)  returns 0x00000001 (0000ms, 0314ms total)
T3CD0 006:655 JLINK_WriteReg(R0, 0x08000000)  returns 0x00 (0000ms, 0314ms total)
T3CD0 006:655 JLINK_WriteReg(R1, 0x00004000)  returns 0x00 (0000ms, 0314ms total)
T3CD0 006:655 JLINK_WriteReg(R2, 0x000000FF)  returns 0x00 (0000ms, 0314ms total)
T3CD0 006:655 JLINK_WriteReg(R3, 0x00000000)  returns 0x00 (0000ms, 0314ms total)
T3CD0 006:655 JLINK_WriteReg(R4, 0x00000000)  returns 0x00 (0000ms, 0314ms total)
T3CD0 006:655 JLINK_WriteReg(R5, 0x00000000)  returns 0x00 (0000ms, 0314ms total)
T3CD0 006:655 JLINK_WriteReg(R6, 0x00000000)  returns 0x00 (0000ms, 0314ms total)
T3CD0 006:655 JLINK_WriteReg(R7, 0x00000000)  returns 0x00 (0000ms, 0314ms total)
T3CD0 006:655 JLINK_WriteReg(R8, 0x00000000)  returns 0x00 (0000ms, 0314ms total)
T3CD0 006:655 JLINK_WriteReg(R9, 0x2000017C)  returns 0x00 (0000ms, 0314ms total)
T3CD0 006:655 JLINK_WriteReg(R10, 0x00000000)  returns 0x00 (0000ms, 0314ms total)
T3CD0 006:655 JLINK_WriteReg(R11, 0x00000000)  returns 0x00 (0000ms, 0314ms total)
T3CD0 006:655 JLINK_WriteReg(R12, 0x00000000)  returns 0x00 (0000ms, 0314ms total)
T3CD0 006:655 JLINK_WriteReg(R13 (SP), 0x20001000)  returns 0x00 (0000ms, 0314ms total)
T3CD0 006:655 JLINK_WriteReg(R14, 0x20000001)  returns 0x00 (0000ms, 0314ms total)
T3CD0 006:655 JLINK_WriteReg(R15 (PC), 0x200000BC)  returns 0x00 (0000ms, 0314ms total)
T3CD0 006:655 JLINK_WriteReg(XPSR, 0x01000000)  returns 0x00 (0000ms, 0314ms total)
T3CD0 006:655 JLINK_WriteReg(MSP, 0x20001000)  returns 0x00 (0000ms, 0314ms total)
T3CD0 006:655 JLINK_WriteReg(PSP, 0x20001000)  returns 0x00 (0000ms, 0314ms total)
T3CD0 006:655 JLINK_WriteReg(CFBP, 0x00000000)  returns 0x00 (0000ms, 0314ms total)
T3CD0 006:655 JLINK_SetBPEx(Addr = 0x20000000, Type = 0xFFFFFFF2)  returns 0x00000003 (0000ms, 0314ms total)
T3CD0 006:655 JLINK_Go() -- CPU_ReadMem(4 bytes @ 0xE0001000) (0002ms, 0316ms total)
T3CD0 006:657 JLINK_IsHalted()  returns FALSE (0001ms, 0317ms total)
T3CD0 006:683 JLINK_IsHalted()  returns FALSE (0000ms, 0316ms total)
T3CD0 006:686 JLINK_IsHalted()  returns FALSE (0000ms, 0316ms total)
T3CD0 006:688 JLINK_IsHalted()  returns FALSE (0000ms, 0316ms total)
T3CD0 006:690 JLINK_IsHalted()  returns FALSE (0000ms, 0316ms total)
T3CD0 006:692 JLINK_IsHalted()  returns FALSE (0000ms, 0316ms total)
T3CD0 006:694 JLINK_IsHalted()  returns FALSE (0000ms, 0316ms total)
T3CD0 006:696 JLINK_IsHalted()  returns FALSE (0000ms, 0316ms total)
T3CD0 006:698 JLINK_IsHalted()  returns FALSE (0000ms, 0316ms total)
T3CD0 006:700 JLINK_IsHalted()  returns FALSE (0000ms, 0316ms total)
T3CD0 006:702 JLINK_IsHalted()  returns FALSE (0000ms, 0316ms total)
T3CD0 006:704 JLINK_IsHalted()  returns FALSE (0000ms, 0316ms total)
T3CD0 006:706 JLINK_IsHalted()  returns FALSE (0000ms, 0316ms total)
T3CD0 006:708 JLINK_IsHalted()  returns FALSE (0000ms, 0316ms total)
T3CD0 006:710 JLINK_IsHalted()  returns FALSE (0000ms, 0316ms total)
T3CD0 006:712 JLINK_IsHalted()  returns FALSE (0000ms, 0316ms total)
T3CD0 006:716 JLINK_IsHalted()  returns FALSE (0000ms, 0316ms total)
T3CD0 006:718 JLINK_IsHalted()  returns FALSE (0000ms, 0316ms total)
T3CD0 006:720 JLINK_IsHalted()  returns FALSE (0000ms, 0316ms total)
T3CD0 006:723 JLINK_IsHalted()  returns FALSE (0000ms, 0316ms total)
T3CD0 006:725 JLINK_IsHalted()  returns FALSE (0000ms, 0316ms total)
T3CD0 006:727 JLINK_IsHalted()  returns FALSE (0000ms, 0316ms total)
T3CD0 006:729 JLINK_IsHalted()  returns FALSE (0000ms, 0316ms total)
T3CD0 006:731 JLINK_IsHalted()  returns FALSE (0000ms, 0316ms total)
T3CD0 006:733 JLINK_IsHalted()  returns FALSE (0000ms, 0316ms total)
T3CD0 006:735 JLINK_IsHalted()  returns FALSE (0000ms, 0316ms total)
T3CD0 006:737 JLINK_IsHalted()  returns FALSE (0000ms, 0316ms total)
T3CD0 006:739 JLINK_IsHalted()  returns FALSE (0000ms, 0316ms total)
T3CD0 006:741 JLINK_IsHalted()  returns FALSE (0000ms, 0316ms total)
T3CD0 006:743 JLINK_IsHalted()  returns FALSE (0000ms, 0316ms total)
T3CD0 006:745 JLINK_IsHalted()  returns FALSE (0000ms, 0316ms total)
T3CD0 006:747 JLINK_IsHalted()  returns FALSE (0000ms, 0316ms total)
T3CD0 006:749 JLINK_IsHalted()  returns FALSE (0000ms, 0316ms total)
T3CD0 006:751 JLINK_IsHalted()  returns FALSE (0000ms, 0316ms total)
T3CD0 006:753 JLINK_IsHalted()  returns FALSE (0000ms, 0316ms total)
T3CD0 006:755 JLINK_IsHalted()  returns FALSE (0000ms, 0316ms total)
T3CD0 006:757 JLINK_IsHalted()  returns FALSE (0000ms, 0316ms total)
T3CD0 006:759 JLINK_IsHalted()  returns FALSE (0000ms, 0316ms total)
T3CD0 006:761 JLINK_IsHalted()  returns FALSE (0000ms, 0316ms total)
T3CD0 006:763 JLINK_IsHalted()  returns FALSE (0000ms, 0316ms total)
T3CD0 006:765 JLINK_IsHalted()  returns FALSE (0000ms, 0316ms total)
T3CD0 006:767 JLINK_IsHalted()  returns FALSE (0000ms, 0316ms total)
T3CD0 006:771 JLINK_IsHalted()  returns FALSE (0000ms, 0316ms total)
T3CD0 006:773 JLINK_IsHalted()  returns FALSE (0000ms, 0316ms total)
T3CD0 006:775 JLINK_IsHalted()  returns FALSE (0000ms, 0316ms total)
T3CD0 006:777 JLINK_IsHalted()  returns FALSE (0000ms, 0316ms total)
T3CD0 006:779 JLINK_IsHalted()  returns FALSE (0000ms, 0316ms total)
T3CD0 006:781 JLINK_IsHalted()  returns FALSE (0000ms, 0316ms total)
T3CD0 006:783 JLINK_IsHalted()  returns FALSE (0000ms, 0316ms total)
T3CD0 006:785 JLINK_IsHalted()  returns FALSE (0000ms, 0316ms total)
T3CD0 006:787 JLINK_IsHalted()  returns FALSE (0000ms, 0316ms total)
T3CD0 006:789 JLINK_IsHalted()  returns FALSE (0000ms, 0316ms total)
T3CD0 006:791 JLINK_IsHalted()  returns FALSE (0000ms, 0316ms total)
T3CD0 006:793 JLINK_IsHalted()  returns FALSE (0000ms, 0316ms total)
T3CD0 006:795 JLINK_IsHalted()  returns FALSE (0000ms, 0316ms total)
T3CD0 006:797 JLINK_IsHalted()  returns FALSE (0000ms, 0316ms total)
T3CD0 006:799 JLINK_IsHalted()  returns FALSE (0000ms, 0316ms total)
T3CD0 006:801 JLINK_IsHalted()  returns FALSE (0000ms, 0316ms total)
T3CD0 006:803 JLINK_IsHalted()  returns FALSE (0000ms, 0316ms total)
T3CD0 006:805 JLINK_IsHalted()  returns FALSE (0000ms, 0316ms total)
T3CD0 006:807 JLINK_IsHalted()  returns FALSE (0000ms, 0316ms total)
T3CD0 006:809 JLINK_IsHalted()  returns FALSE (0000ms, 0316ms total)
T3CD0 006:811 JLINK_IsHalted()  returns FALSE (0000ms, 0316ms total)
T3CD0 006:813 JLINK_IsHalted()  returns FALSE (0000ms, 0316ms total)
T3CD0 006:815 JLINK_IsHalted()  returns FALSE (0000ms, 0316ms total)
T3CD0 006:817 JLINK_IsHalted()  returns FALSE (0000ms, 0316ms total)
T3CD0 006:819 JLINK_IsHalted()  returns FALSE (0000ms, 0316ms total)
T3CD0 006:821 JLINK_IsHalted()  returns FALSE (0000ms, 0316ms total)
T3CD0 006:823 JLINK_IsHalted()  returns FALSE (0000ms, 0316ms total)
T3CD0 006:826 JLINK_IsHalted()  returns FALSE (0000ms, 0316ms total)
T3CD0 006:828 JLINK_IsHalted()  returns FALSE (0000ms, 0316ms total)
T3CD0 006:830 JLINK_IsHalted()  returns FALSE (0000ms, 0316ms total)
T3CD0 006:832 JLINK_IsHalted()  returns FALSE (0000ms, 0316ms total)
T3CD0 006:834 JLINK_IsHalted()  returns FALSE (0000ms, 0316ms total)
T3CD0 006:836 JLINK_IsHalted()  returns FALSE (0000ms, 0316ms total)
T3CD0 006:838 JLINK_IsHalted()  returns FALSE (0000ms, 0316ms total)
T3CD0 006:840 JLINK_IsHalted()  returns FALSE (0000ms, 0316ms total)
T3CD0 006:842 JLINK_IsHalted()  returns FALSE (0000ms, 0316ms total)
T3CD0 006:844 JLINK_IsHalted()  returns FALSE (0000ms, 0316ms total)
T3CD0 006:846 JLINK_IsHalted()  returns FALSE (0000ms, 0316ms total)
T3CD0 006:848 JLINK_IsHalted()  returns FALSE (0000ms, 0316ms total)
T3CD0 006:850 JLINK_IsHalted()  returns FALSE (0000ms, 0316ms total)
T3CD0 006:852 JLINK_IsHalted()  returns FALSE (0000ms, 0316ms total)
T3CD0 006:854 JLINK_IsHalted()  returns FALSE (0000ms, 0316ms total)
T3CD0 006:856 JLINK_IsHalted()  returns FALSE (0000ms, 0316ms total)
T3CD0 006:860 JLINK_IsHalted()  returns FALSE (0000ms, 0316ms total)
T3CD0 006:862 JLINK_IsHalted()  returns FALSE (0000ms, 0316ms total)
T3CD0 006:864 JLINK_IsHalted()  returns FALSE (0000ms, 0316ms total)
T3CD0 006:866 JLINK_IsHalted()  returns FALSE (0000ms, 0316ms total)
T3CD0 006:868 JLINK_IsHalted()  returns FALSE (0000ms, 0316ms total)
T3CD0 006:870 JLINK_IsHalted()  returns FALSE (0000ms, 0316ms total)
T3CD0 006:872 JLINK_IsHalted()  returns FALSE (0000ms, 0316ms total)
T3CD0 006:874 JLINK_IsHalted()  returns FALSE (0000ms, 0316ms total)
T3CD0 006:876 JLINK_IsHalted()  returns FALSE (0000ms, 0316ms total)
T3CD0 006:878 JLINK_IsHalted()  returns FALSE (0000ms, 0316ms total)
T3CD0 006:881 JLINK_IsHalted()  returns FALSE (0000ms, 0316ms total)
T3CD0 006:883 JLINK_IsHalted()  returns FALSE (0000ms, 0316ms total)
T3CD0 006:885 JLINK_IsHalted()  returns FALSE (0000ms, 0316ms total)
T3CD0 006:887 JLINK_IsHalted()  returns FALSE (0000ms, 0316ms total)
T3CD0 006:889 JLINK_IsHalted()  returns FALSE (0000ms, 0316ms total)
T3CD0 006:891 JLINK_IsHalted()  returns FALSE (0000ms, 0316ms total)
T3CD0 006:893 JLINK_IsHalted()  returns FALSE (0000ms, 0316ms total)
T3CD0 006:895 JLINK_IsHalted()  returns FALSE (0000ms, 0316ms total)
T3CD0 006:897 JLINK_IsHalted()  returns FALSE (0000ms, 0316ms total)
T3CD0 006:899 JLINK_IsHalted()  returns FALSE (0000ms, 0316ms total)
T3CD0 006:901 JLINK_IsHalted()  returns FALSE (0000ms, 0316ms total)
T3CD0 006:903 JLINK_IsHalted()  returns FALSE (0000ms, 0316ms total)
T3CD0 006:905 JLINK_IsHalted()  returns FALSE (0000ms, 0316ms total)
T3CD0 006:907 JLINK_IsHalted()  returns FALSE (0000ms, 0316ms total)
T3CD0 006:909 JLINK_IsHalted()  returns FALSE (0000ms, 0316ms total)
T3CD0 006:911 JLINK_IsHalted()  returns FALSE (0000ms, 0316ms total)
T3CD0 006:913 JLINK_IsHalted()  returns FALSE (0000ms, 0316ms total)
T3CD0 006:915 JLINK_IsHalted()  returns FALSE (0000ms, 0316ms total)
T3CD0 006:918 JLINK_IsHalted()  returns FALSE (0000ms, 0316ms total)
T3CD0 006:920 JLINK_IsHalted()  returns FALSE (0000ms, 0316ms total)
T3CD0 006:922 JLINK_IsHalted()  returns FALSE (0000ms, 0316ms total)
T3CD0 006:924 JLINK_IsHalted()  returns FALSE (0000ms, 0316ms total)
T3CD0 006:926 JLINK_IsHalted()  returns FALSE (0000ms, 0316ms total)
T3CD0 006:928 JLINK_IsHalted()  returns FALSE (0000ms, 0316ms total)
T3CD0 006:931 JLINK_IsHalted()  returns FALSE (0000ms, 0316ms total)
T3CD0 006:934 JLINK_IsHalted()  returns FALSE (0000ms, 0316ms total)
T3CD0 006:936 JLINK_IsHalted()  returns FALSE (0000ms, 0316ms total)
T3CD0 006:938 JLINK_IsHalted()  returns FALSE (0000ms, 0316ms total)
T3CD0 006:940 JLINK_IsHalted()  returns FALSE (0000ms, 0316ms total)
T3CD0 006:942 JLINK_IsHalted()  returns FALSE (0000ms, 0316ms total)
T3CD0 006:944 JLINK_IsHalted()  returns FALSE (0000ms, 0316ms total)
T3CD0 006:946 JLINK_IsHalted()  returns FALSE (0000ms, 0316ms total)
T3CD0 006:949 JLINK_IsHalted()  returns FALSE (0000ms, 0316ms total)
T3CD0 006:951 JLINK_IsHalted()  returns FALSE (0000ms, 0316ms total)
T3CD0 006:953 JLINK_IsHalted()  returns FALSE (0000ms, 0316ms total)
T3CD0 006:955 JLINK_IsHalted()  returns FALSE (0000ms, 0316ms total)
T3CD0 006:957 JLINK_IsHalted()  returns FALSE (0000ms, 0316ms total)
T3CD0 006:959 JLINK_IsHalted()  returns FALSE (0000ms, 0316ms total)
T3CD0 006:962 JLINK_IsHalted()  returns FALSE (0000ms, 0316ms total)
T3CD0 006:964 JLINK_IsHalted()  returns FALSE (0000ms, 0316ms total)
T3CD0 006:966 JLINK_IsHalted()  returns FALSE (0000ms, 0316ms total)
T3CD0 006:968 JLINK_IsHalted()  returns FALSE (0000ms, 0316ms total)
T3CD0 006:970 JLINK_IsHalted()  returns FALSE (0000ms, 0316ms total)
T3CD0 006:972 JLINK_IsHalted()  returns FALSE (0000ms, 0316ms total)
T3CD0 006:974 JLINK_IsHalted()  returns FALSE (0000ms, 0316ms total)
T3CD0 006:976 JLINK_IsHalted()  returns FALSE (0000ms, 0316ms total)
T3CD0 006:979 JLINK_IsHalted()  returns FALSE (0000ms, 0316ms total)
T3CD0 006:981 JLINK_IsHalted()  returns FALSE (0000ms, 0316ms total)
T3CD0 006:983 JLINK_IsHalted()  returns FALSE (0000ms, 0316ms total)
T3CD0 006:985 JLINK_IsHalted()  returns FALSE (0000ms, 0316ms total)
T3CD0 006:987 JLINK_IsHalted()  returns FALSE (0000ms, 0316ms total)
T3CD0 006:989 JLINK_IsHalted()  returns FALSE (0000ms, 0316ms total)
T3CD0 006:991 JLINK_IsHalted()  returns FALSE (0000ms, 0316ms total)
T3CD0 006:993 JLINK_IsHalted() -- CPU_ReadMem(2 bytes @ 0x20000000)  returns TRUE (0002ms, 0318ms total)
T3CD0 006:995 JLINK_ReadReg(R15 (PC))  returns 0x20000000 (0000ms, 0316ms total)
T3CD0 006:995 JLINK_ClrBPEx(BPHandle = 0x00000003)  returns 0x00 (0000ms, 0316ms total)
T3CD0 006:995 JLINK_ReadReg(R0)  returns 0x00000000 (0000ms, 0316ms total)
T3CD0 006:997 JLINK_WriteReg(R0, 0x00000001)  returns 0x00 (0000ms, 0316ms total)
T3CD0 006:997 JLINK_WriteReg(R1, 0x00004000)  returns 0x00 (0000ms, 0316ms total)
T3CD0 006:997 JLINK_WriteReg(R2, 0x000000FF)  returns 0x00 (0000ms, 0316ms total)
T3CD0 006:997 JLINK_WriteReg(R3, 0x00000000)  returns 0x00 (0000ms, 0316ms total)
T3CD0 006:997 JLINK_WriteReg(R4, 0x00000000)  returns 0x00 (0000ms, 0316ms total)
T3CD0 006:997 JLINK_WriteReg(R5, 0x00000000)  returns 0x00 (0000ms, 0316ms total)
T3CD0 006:997 JLINK_WriteReg(R6, 0x00000000)  returns 0x00 (0000ms, 0316ms total)
T3CD0 006:997 JLINK_WriteReg(R7, 0x00000000)  returns 0x00 (0000ms, 0316ms total)
T3CD0 006:997 JLINK_WriteReg(R8, 0x00000000)  returns 0x00 (0000ms, 0316ms total)
T3CD0 006:997 JLINK_WriteReg(R9, 0x2000017C)  returns 0x00 (0000ms, 0316ms total)
T3CD0 006:997 JLINK_WriteReg(R10, 0x00000000)  returns 0x00 (0000ms, 0316ms total)
T3CD0 006:997 JLINK_WriteReg(R11, 0x00000000)  returns 0x00 (0000ms, 0316ms total)
T3CD0 006:997 JLINK_WriteReg(R12, 0x00000000)  returns 0x00 (0000ms, 0316ms total)
T3CD0 006:997 JLINK_WriteReg(R13 (SP), 0x20001000)  returns 0x00 (0000ms, 0316ms total)
T3CD0 006:997 JLINK_WriteReg(R14, 0x20000001)  returns 0x00 (0000ms, 0316ms total)
T3CD0 006:997 JLINK_WriteReg(R15 (PC), 0x20000082)  returns 0x00 (0000ms, 0316ms total)
T3CD0 006:997 JLINK_WriteReg(XPSR, 0x01000000)  returns 0x00 (0000ms, 0316ms total)
T3CD0 006:997 JLINK_WriteReg(MSP, 0x20001000)  returns 0x00 (0000ms, 0316ms total)
T3CD0 006:997 JLINK_WriteReg(PSP, 0x20001000)  returns 0x00 (0000ms, 0316ms total)
T3CD0 006:997 JLINK_WriteReg(CFBP, 0x00000000)  returns 0x00 (0000ms, 0316ms total)
T3CD0 006:997 JLINK_SetBPEx(Addr = 0x20000000, Type = 0xFFFFFFF2)  returns 0x00000004 (0000ms, 0316ms total)
T3CD0 006:997 JLINK_Go() -- CPU_ReadMem(4 bytes @ 0xE0001000) (0002ms, 0318ms total)
T3CD0 006:999 JLINK_IsHalted() -- CPU_ReadMem(2 bytes @ 0x20000000)  returns TRUE (0004ms, 0322ms total)
T3CD0 007:003 JLINK_ReadReg(R15 (PC))  returns 0x20000000 (0000ms, 0318ms total)
T3CD0 007:003 JLINK_ClrBPEx(BPHandle = 0x00000004)  returns 0x00 (0000ms, 0318ms total)
T3CD0 007:003 JLINK_ReadReg(R0)  returns 0x00000000 (0000ms, 0318ms total)
T3CD0 007:062 JLINK_WriteMem(0x20000000, 0x0180 Bytes, ...) - Data: 00 BE 0A E0 0D 78 2D 06 68 40 08 24 40 00 00 D3 ... -- CPU_WriteMem(384 bytes @ 0x20000000)  returns 0x180 (0002ms, 0320ms total)
T3CD0 007:064 JLINK_WriteReg(R0, 0x08000000)  returns 0x00 (0000ms, 0320ms total)
T3CD0 007:064 JLINK_WriteReg(R1, 0x017D7840)  returns 0x00 (0000ms, 0320ms total)
T3CD0 007:064 JLINK_WriteReg(R2, 0x00000002)  returns 0x00 (0000ms, 0320ms total)
T3CD0 007:064 JLINK_WriteReg(R3, 0x00000000)  returns 0x00 (0000ms, 0320ms total)
T3CD0 007:064 JLINK_WriteReg(R4, 0x00000000)  returns 0x00 (0000ms, 0320ms total)
T3CD0 007:064 JLINK_WriteReg(R5, 0x00000000)  returns 0x00 (0000ms, 0320ms total)
T3CD0 007:064 JLINK_WriteReg(R6, 0x00000000)  returns 0x00 (0000ms, 0320ms total)
T3CD0 007:064 JLINK_WriteReg(R7, 0x00000000)  returns 0x00 (0000ms, 0320ms total)
T3CD0 007:064 JLINK_WriteReg(R8, 0x00000000)  returns 0x00 (0000ms, 0320ms total)
T3CD0 007:064 JLINK_WriteReg(R9, 0x2000017C)  returns 0x00 (0000ms, 0320ms total)
T3CD0 007:064 JLINK_WriteReg(R10, 0x00000000)  returns 0x00 (0000ms, 0320ms total)
T3CD0 007:064 JLINK_WriteReg(R11, 0x00000000)  returns 0x00 (0000ms, 0320ms total)
T3CD0 007:064 JLINK_WriteReg(R12, 0x00000000)  returns 0x00 (0000ms, 0320ms total)
T3CD0 007:064 JLINK_WriteReg(R13 (SP), 0x20001000)  returns 0x00 (0000ms, 0320ms total)
T3CD0 007:064 JLINK_WriteReg(R14, 0x20000001)  returns 0x00 (0000ms, 0320ms total)
T3CD0 007:064 JLINK_WriteReg(R15 (PC), 0x20000054)  returns 0x00 (0000ms, 0320ms total)
T3CD0 007:064 JLINK_WriteReg(XPSR, 0x01000000)  returns 0x00 (0000ms, 0320ms total)
T3CD0 007:064 JLINK_WriteReg(MSP, 0x20001000)  returns 0x00 (0000ms, 0320ms total)
T3CD0 007:064 JLINK_WriteReg(PSP, 0x20001000)  returns 0x00 (0001ms, 0321ms total)
T3CD0 007:065 JLINK_WriteReg(CFBP, 0x00000000)  returns 0x00 (0000ms, 0321ms total)
T3CD0 007:065 JLINK_SetBPEx(Addr = 0x20000000, Type = 0xFFFFFFF2) -- CPU_ReadMem(2 bytes @ 0x20000000)  returns 0x00000005 (0000ms, 0321ms total)
T3CD0 007:065 JLINK_Go() -- CPU_WriteMem(2 bytes @ 0x20000000) -- CPU_ReadMem(4 bytes @ 0xE0001000) (0002ms, 0323ms total)
T3CD0 007:067 JLINK_IsHalted() -- CPU_ReadMem(2 bytes @ 0x20000000)  returns TRUE (0004ms, 0327ms total)
T3CD0 007:071 JLINK_ReadReg(R15 (PC))  returns 0x20000000 (0000ms, 0323ms total)
T3CD0 007:071 JLINK_ClrBPEx(BPHandle = 0x00000005)  returns 0x00 (0000ms, 0323ms total)
T3CD0 007:071 JLINK_ReadReg(R0)  returns 0x00000000 (0000ms, 0323ms total)
T3CD0 007:072 JLINK_WriteMem(0x20000180, 0x0280 Bytes, ...) - Data: A0 07 00 20 C1 01 00 08 EB 16 00 08 3B 16 00 08 ... -- CPU_WriteMem(640 bytes @ 0x20000180)  returns 0x280 (0003ms, 0326ms total)
T3CD0 007:075 JLINK_WriteMem(0x20000400, 0x0180 Bytes, ...) - Data: 83 5C 8C 5C A3 42 01 D1 00 2B F8 D1 D8 B2 E1 B2 ... -- CPU_WriteMem(384 bytes @ 0x20000400)  returns 0x180 (0002ms, 0328ms total)
T3CD0 007:078 JLINK_WriteReg(R0, 0x08000000)  returns 0x00 (0000ms, 0329ms total)
T3CD0 007:078 JLINK_WriteReg(R1, 0x00000400)  returns 0x00 (0000ms, 0329ms total)
T3CD0 007:078 JLINK_WriteReg(R2, 0x20000180)  returns 0x00 (0000ms, 0329ms total)
T3CD0 007:078 JLINK_WriteReg(R3, 0x00000000)  returns 0x00 (0000ms, 0329ms total)
T3CD0 007:078 JLINK_WriteReg(R4, 0x00000000)  returns 0x00 (0000ms, 0329ms total)
T3CD0 007:078 JLINK_WriteReg(R5, 0x00000000)  returns 0x00 (0000ms, 0329ms total)
T3CD0 007:078 JLINK_WriteReg(R6, 0x00000000)  returns 0x00 (0000ms, 0329ms total)
T3CD0 007:078 JLINK_WriteReg(R7, 0x00000000)  returns 0x00 (0000ms, 0329ms total)
T3CD0 007:078 JLINK_WriteReg(R8, 0x00000000)  returns 0x00 (0000ms, 0329ms total)
T3CD0 007:078 JLINK_WriteReg(R9, 0x2000017C)  returns 0x00 (0000ms, 0329ms total)
T3CD0 007:078 JLINK_WriteReg(R10, 0x00000000)  returns 0x00 (0000ms, 0329ms total)
T3CD0 007:078 JLINK_WriteReg(R11, 0x00000000)  returns 0x00 (0000ms, 0329ms total)
T3CD0 007:078 JLINK_WriteReg(R12, 0x00000000)  returns 0x00 (0000ms, 0329ms total)
T3CD0 007:078 JLINK_WriteReg(R13 (SP), 0x20001000)  returns 0x00 (0000ms, 0329ms total)
T3CD0 007:078 JLINK_WriteReg(R14, 0x20000001)  returns 0x00 (0000ms, 0329ms total)
T3CD0 007:078 JLINK_WriteReg(R15 (PC), 0x20000108)  returns 0x00 (0000ms, 0329ms total)
T3CD0 007:078 JLINK_WriteReg(XPSR, 0x01000000)  returns 0x00 (0000ms, 0329ms total)
T3CD0 007:078 JLINK_WriteReg(MSP, 0x20001000)  returns 0x00 (0000ms, 0329ms total)
T3CD0 007:078 JLINK_WriteReg(PSP, 0x20001000)  returns 0x00 (0000ms, 0329ms total)
T3CD0 007:078 JLINK_WriteReg(CFBP, 0x00000000)  returns 0x00 (0000ms, 0329ms total)
T3CD0 007:078 JLINK_SetBPEx(Addr = 0x20000000, Type = 0xFFFFFFF2)  returns 0x00000006 (0000ms, 0329ms total)
T3CD0 007:078 JLINK_Go() -- CPU_ReadMem(4 bytes @ 0xE0001000) (0002ms, 0331ms total)
T3CD0 007:080 JLINK_IsHalted()  returns FALSE (0000ms, 0331ms total)
T3CD0 007:085 JLINK_IsHalted() -- CPU_ReadMem(2 bytes @ 0x20000000)  returns TRUE (0003ms, 0334ms total)
T3CD0 007:088 JLINK_ReadReg(R15 (PC))  returns 0x20000000 (0000ms, 0331ms total)
T3CD0 007:088 JLINK_ClrBPEx(BPHandle = 0x00000006)  returns 0x00 (0000ms, 0331ms total)
T3CD0 007:088 JLINK_ReadReg(R0)  returns 0x00000000 (0000ms, 0331ms total)
T3CD0 007:089 JLINK_WriteMem(0x20000180, 0x0280 Bytes, ...) - Data: 22 05 01 D5 08 70 15 E0 22 07 01 D5 08 80 11 E0 ... -- CPU_WriteMem(640 bytes @ 0x20000180)  returns 0x280 (0003ms, 0334ms total)
T3CD0 007:092 JLINK_WriteMem(0x20000400, 0x0180 Bytes, ...) - Data: 90 47 00 E0 76 1C A1 69 0B 98 88 47 21 6A 88 47 ... -- CPU_WriteMem(384 bytes @ 0x20000400)  returns 0x180 (0003ms, 0337ms total)
T3CD0 007:095 JLINK_WriteReg(R0, 0x08000400)  returns 0x00 (0000ms, 0337ms total)
T3CD0 007:095 JLINK_WriteReg(R1, 0x00000400)  returns 0x00 (0000ms, 0337ms total)
T3CD0 007:095 JLINK_WriteReg(R2, 0x20000180)  returns 0x00 (0000ms, 0337ms total)
T3CD0 007:095 JLINK_WriteReg(R3, 0x00000000)  returns 0x00 (0000ms, 0337ms total)
T3CD0 007:095 JLINK_WriteReg(R4, 0x00000000)  returns 0x00 (0000ms, 0337ms total)
T3CD0 007:095 JLINK_WriteReg(R5, 0x00000000)  returns 0x00 (0000ms, 0337ms total)
T3CD0 007:096 JLINK_WriteReg(R6, 0x00000000)  returns 0x00 (0000ms, 0338ms total)
T3CD0 007:096 JLINK_WriteReg(R7, 0x00000000)  returns 0x00 (0000ms, 0338ms total)
T3CD0 007:096 JLINK_WriteReg(R8, 0x00000000)  returns 0x00 (0000ms, 0338ms total)
T3CD0 007:096 JLINK_WriteReg(R9, 0x2000017C)  returns 0x00 (0000ms, 0338ms total)
T3CD0 007:096 JLINK_WriteReg(R10, 0x00000000)  returns 0x00 (0000ms, 0338ms total)
T3CD0 007:096 JLINK_WriteReg(R11, 0x00000000)  returns 0x00 (0000ms, 0338ms total)
T3CD0 007:096 JLINK_WriteReg(R12, 0x00000000)  returns 0x00 (0000ms, 0338ms total)
T3CD0 007:096 JLINK_WriteReg(R13 (SP), 0x20001000)  returns 0x00 (0000ms, 0338ms total)
T3CD0 007:096 JLINK_WriteReg(R14, 0x20000001)  returns 0x00 (0000ms, 0338ms total)
T3CD0 007:096 JLINK_WriteReg(R15 (PC), 0x20000108)  returns 0x00 (0000ms, 0338ms total)
T3CD0 007:096 JLINK_WriteReg(XPSR, 0x01000000)  returns 0x00 (0000ms, 0338ms total)
T3CD0 007:096 JLINK_WriteReg(MSP, 0x20001000)  returns 0x00 (0000ms, 0338ms total)
T3CD0 007:096 JLINK_WriteReg(PSP, 0x20001000)  returns 0x00 (0000ms, 0338ms total)
T3CD0 007:096 JLINK_WriteReg(CFBP, 0x00000000)  returns 0x00 (0000ms, 0338ms total)
T3CD0 007:096 JLINK_SetBPEx(Addr = 0x20000000, Type = 0xFFFFFFF2)  returns 0x00000007 (0000ms, 0338ms total)
T3CD0 007:096 JLINK_Go() -- CPU_ReadMem(4 bytes @ 0xE0001000) (0002ms, 0340ms total)
T3CD0 007:098 JLINK_IsHalted()  returns FALSE (0000ms, 0340ms total)
T3CD0 007:100 JLINK_IsHalted()  returns FALSE (0000ms, 0340ms total)
T3CD0 007:103 JLINK_IsHalted() -- CPU_ReadMem(2 bytes @ 0x20000000)  returns TRUE (0003ms, 0343ms total)
T3CD0 007:106 JLINK_ReadReg(R15 (PC))  returns 0x20000000 (0000ms, 0340ms total)
T3CD0 007:106 JLINK_ClrBPEx(BPHandle = 0x00000007)  returns 0x00 (0000ms, 0340ms total)
T3CD0 007:106 JLINK_ReadReg(R0)  returns 0x00000000 (0000ms, 0340ms total)
T3CD0 007:107 JLINK_WriteMem(0x20000180, 0x0280 Bytes, ...) - Data: 00 02 36 D4 3E E0 E8 07 7F F4 47 AF 20 68 01 1D ... -- CPU_WriteMem(640 bytes @ 0x20000180)  returns 0x280 (0003ms, 0343ms total)
T3CD0 007:110 JLINK_WriteMem(0x20000400, 0x0180 Bytes, ...) - Data: 01 20 02 21 0F E0 20 46 33 A1 32 46 FF F7 12 FC ... -- CPU_WriteMem(384 bytes @ 0x20000400)  returns 0x180 (0003ms, 0346ms total)
T3CD0 007:113 JLINK_WriteReg(R0, 0x08000800)  returns 0x00 (0000ms, 0346ms total)
T3CD0 007:113 JLINK_WriteReg(R1, 0x00000400)  returns 0x00 (0000ms, 0346ms total)
T3CD0 007:113 JLINK_WriteReg(R2, 0x20000180)  returns 0x00 (0000ms, 0346ms total)
T3CD0 007:113 JLINK_WriteReg(R3, 0x00000000)  returns 0x00 (0000ms, 0346ms total)
T3CD0 007:113 JLINK_WriteReg(R4, 0x00000000)  returns 0x00 (0000ms, 0346ms total)
T3CD0 007:113 JLINK_WriteReg(R5, 0x00000000)  returns 0x00 (0000ms, 0346ms total)
T3CD0 007:113 JLINK_WriteReg(R6, 0x00000000)  returns 0x00 (0000ms, 0346ms total)
T3CD0 007:113 JLINK_WriteReg(R7, 0x00000000)  returns 0x00 (0000ms, 0346ms total)
T3CD0 007:113 JLINK_WriteReg(R8, 0x00000000)  returns 0x00 (0000ms, 0346ms total)
T3CD0 007:113 JLINK_WriteReg(R9, 0x2000017C)  returns 0x00 (0000ms, 0346ms total)
T3CD0 007:113 JLINK_WriteReg(R10, 0x00000000)  returns 0x00 (0000ms, 0346ms total)
T3CD0 007:113 JLINK_WriteReg(R11, 0x00000000)  returns 0x00 (0000ms, 0346ms total)
T3CD0 007:113 JLINK_WriteReg(R12, 0x00000000)  returns 0x00 (0000ms, 0346ms total)
T3CD0 007:113 JLINK_WriteReg(R13 (SP), 0x20001000)  returns 0x00 (0000ms, 0346ms total)
T3CD0 007:113 JLINK_WriteReg(R14, 0x20000001)  returns 0x00 (0000ms, 0346ms total)
T3CD0 007:113 JLINK_WriteReg(R15 (PC), 0x20000108)  returns 0x00 (0000ms, 0346ms total)
T3CD0 007:113 JLINK_WriteReg(XPSR, 0x01000000)  returns 0x00 (0000ms, 0346ms total)
T3CD0 007:113 JLINK_WriteReg(MSP, 0x20001000)  returns 0x00 (0000ms, 0346ms total)
T3CD0 007:113 JLINK_WriteReg(PSP, 0x20001000)  returns 0x00 (0000ms, 0346ms total)
T3CD0 007:113 JLINK_WriteReg(CFBP, 0x00000000)  returns 0x00 (0000ms, 0346ms total)
T3CD0 007:113 JLINK_SetBPEx(Addr = 0x20000000, Type = 0xFFFFFFF2)  returns 0x00000008 (0000ms, 0346ms total)
T3CD0 007:113 JLINK_Go() -- CPU_ReadMem(4 bytes @ 0xE0001000) (0002ms, 0348ms total)
T3CD0 007:115 JLINK_IsHalted()  returns FALSE (0001ms, 0349ms total)
T3CD0 007:118 JLINK_IsHalted()  returns FALSE (0000ms, 0348ms total)
T3CD0 007:120 JLINK_IsHalted() -- CPU_ReadMem(2 bytes @ 0x20000000)  returns TRUE (0003ms, 0351ms total)
T3CD0 007:123 JLINK_ReadReg(R15 (PC))  returns 0x20000000 (0000ms, 0348ms total)
T3CD0 007:123 JLINK_ClrBPEx(BPHandle = 0x00000008)  returns 0x00 (0000ms, 0348ms total)
T3CD0 007:123 JLINK_ReadReg(R0)  returns 0x00000000 (0000ms, 0348ms total)
T3CD0 007:124 JLINK_WriteMem(0x20000180, 0x0280 Bytes, ...) - Data: 18 BF 04 44 00 F0 D4 F8 40 1B A0 42 FA D3 B0 BD ... -- CPU_WriteMem(640 bytes @ 0x20000180)  returns 0x280 (0004ms, 0352ms total)
T3CD0 007:128 JLINK_WriteMem(0x20000400, 0x0180 Bytes, ...) - Data: 20 10 70 47 00 E1 00 E0 10 B5 16 4B 1B 68 C3 F3 ... -- CPU_WriteMem(384 bytes @ 0x20000400)  returns 0x180 (0003ms, 0355ms total)
T3CD0 007:131 JLINK_WriteReg(R0, 0x08000C00)  returns 0x00 (0000ms, 0355ms total)
T3CD0 007:131 JLINK_WriteReg(R1, 0x00000400)  returns 0x00 (0000ms, 0355ms total)
T3CD0 007:131 JLINK_WriteReg(R2, 0x20000180)  returns 0x00 (0000ms, 0355ms total)
T3CD0 007:131 JLINK_WriteReg(R3, 0x00000000)  returns 0x00 (0000ms, 0355ms total)
T3CD0 007:131 JLINK_WriteReg(R4, 0x00000000)  returns 0x00 (0000ms, 0355ms total)
T3CD0 007:131 JLINK_WriteReg(R5, 0x00000000)  returns 0x00 (0000ms, 0355ms total)
T3CD0 007:131 JLINK_WriteReg(R6, 0x00000000)  returns 0x00 (0000ms, 0355ms total)
T3CD0 007:131 JLINK_WriteReg(R7, 0x00000000)  returns 0x00 (0000ms, 0355ms total)
T3CD0 007:131 JLINK_WriteReg(R8, 0x00000000)  returns 0x00 (0000ms, 0355ms total)
T3CD0 007:131 JLINK_WriteReg(R9, 0x2000017C)  returns 0x00 (0000ms, 0355ms total)
T3CD0 007:131 JLINK_WriteReg(R10, 0x00000000)  returns 0x00 (0000ms, 0355ms total)
T3CD0 007:131 JLINK_WriteReg(R11, 0x00000000)  returns 0x00 (0000ms, 0355ms total)
T3CD0 007:131 JLINK_WriteReg(R12, 0x00000000)  returns 0x00 (0000ms, 0355ms total)
T3CD0 007:131 JLINK_WriteReg(R13 (SP), 0x20001000)  returns 0x00 (0000ms, 0355ms total)
T3CD0 007:131 JLINK_WriteReg(R14, 0x20000001)  returns 0x00 (0000ms, 0355ms total)
T3CD0 007:131 JLINK_WriteReg(R15 (PC), 0x20000108)  returns 0x00 (0000ms, 0355ms total)
T3CD0 007:131 JLINK_WriteReg(XPSR, 0x01000000)  returns 0x00 (0000ms, 0355ms total)
T3CD0 007:131 JLINK_WriteReg(MSP, 0x20001000)  returns 0x00 (0000ms, 0355ms total)
T3CD0 007:131 JLINK_WriteReg(PSP, 0x20001000)  returns 0x00 (0000ms, 0355ms total)
T3CD0 007:131 JLINK_WriteReg(CFBP, 0x00000000)  returns 0x00 (0000ms, 0355ms total)
T3CD0 007:131 JLINK_SetBPEx(Addr = 0x20000000, Type = 0xFFFFFFF2)  returns 0x00000009 (0000ms, 0355ms total)
T3CD0 007:131 JLINK_Go() -- CPU_ReadMem(4 bytes @ 0xE0001000) (0002ms, 0357ms total)
T3CD0 007:133 JLINK_IsHalted()  returns FALSE (0001ms, 0358ms total)
T3CD0 007:136 JLINK_IsHalted()  returns FALSE (0000ms, 0357ms total)
T3CD0 007:138 JLINK_IsHalted()  returns FALSE (0000ms, 0357ms total)
T3CD0 007:140 JLINK_IsHalted() -- CPU_ReadMem(2 bytes @ 0x20000000)  returns TRUE (0003ms, 0360ms total)
T3CD0 007:143 JLINK_ReadReg(R15 (PC))  returns 0x20000000 (0000ms, 0357ms total)
T3CD0 007:143 JLINK_ClrBPEx(BPHandle = 0x00000009)  returns 0x00 (0000ms, 0357ms total)
T3CD0 007:143 JLINK_ReadReg(R0)  returns 0x00000000 (0000ms, 0357ms total)
T3CD0 007:144 JLINK_WriteMem(0x20000180, 0x0280 Bytes, ...) - Data: FF F7 FA FE 00 20 00 E0 01 20 C0 B2 BD E8 F0 81 ... -- CPU_WriteMem(640 bytes @ 0x20000180)  returns 0x280 (0004ms, 0361ms total)
T3CD0 007:148 JLINK_WriteMem(0x20000400, 0x0180 Bytes, ...) - Data: 02 28 F4 D9 1A E0 A6 68 01 2E 05 D0 F8 6E 05 2E ... -- CPU_WriteMem(384 bytes @ 0x20000400)  returns 0x180 (0002ms, 0363ms total)
T3CD0 007:150 JLINK_WriteReg(R0, 0x08001000)  returns 0x00 (0000ms, 0363ms total)
T3CD0 007:150 JLINK_WriteReg(R1, 0x00000400)  returns 0x00 (0000ms, 0363ms total)
T3CD0 007:150 JLINK_WriteReg(R2, 0x20000180)  returns 0x00 (0000ms, 0363ms total)
T3CD0 007:150 JLINK_WriteReg(R3, 0x00000000)  returns 0x00 (0000ms, 0363ms total)
T3CD0 007:150 JLINK_WriteReg(R4, 0x00000000)  returns 0x00 (0000ms, 0363ms total)
T3CD0 007:150 JLINK_WriteReg(R5, 0x00000000)  returns 0x00 (0000ms, 0363ms total)
T3CD0 007:150 JLINK_WriteReg(R6, 0x00000000)  returns 0x00 (0000ms, 0363ms total)
T3CD0 007:150 JLINK_WriteReg(R7, 0x00000000)  returns 0x00 (0000ms, 0363ms total)
T3CD0 007:150 JLINK_WriteReg(R8, 0x00000000)  returns 0x00 (0000ms, 0363ms total)
T3CD0 007:150 JLINK_WriteReg(R9, 0x2000017C)  returns 0x00 (0000ms, 0363ms total)
T3CD0 007:150 JLINK_WriteReg(R10, 0x00000000)  returns 0x00 (0000ms, 0363ms total)
T3CD0 007:150 JLINK_WriteReg(R11, 0x00000000)  returns 0x00 (0000ms, 0363ms total)
T3CD0 007:150 JLINK_WriteReg(R12, 0x00000000)  returns 0x00 (0000ms, 0363ms total)
T3CD0 007:150 JLINK_WriteReg(R13 (SP), 0x20001000)  returns 0x00 (0000ms, 0363ms total)
T3CD0 007:150 JLINK_WriteReg(R14, 0x20000001)  returns 0x00 (0000ms, 0363ms total)
T3CD0 007:150 JLINK_WriteReg(R15 (PC), 0x20000108)  returns 0x00 (0000ms, 0363ms total)
T3CD0 007:150 JLINK_WriteReg(XPSR, 0x01000000)  returns 0x00 (0000ms, 0363ms total)
T3CD0 007:150 JLINK_WriteReg(MSP, 0x20001000)  returns 0x00 (0000ms, 0363ms total)
T3CD0 007:150 JLINK_WriteReg(PSP, 0x20001000)  returns 0x00 (0000ms, 0363ms total)
T3CD0 007:150 JLINK_WriteReg(CFBP, 0x00000000)  returns 0x00 (0000ms, 0363ms total)
T3CD0 007:150 JLINK_SetBPEx(Addr = 0x20000000, Type = 0xFFFFFFF2)  returns 0x0000000A (0001ms, 0364ms total)
T3CD0 007:151 JLINK_Go() -- CPU_ReadMem(4 bytes @ 0xE0001000) (0001ms, 0365ms total)
T3CD0 007:152 JLINK_IsHalted()  returns FALSE (0001ms, 0366ms total)
T3CD0 007:157 JLINK_IsHalted() -- CPU_ReadMem(2 bytes @ 0x20000000)  returns TRUE (0003ms, 0368ms total)
T3CD0 007:160 JLINK_ReadReg(R15 (PC))  returns 0x20000000 (0000ms, 0365ms total)
T3CD0 007:160 JLINK_ClrBPEx(BPHandle = 0x0000000A)  returns 0x00 (0000ms, 0365ms total)
T3CD0 007:160 JLINK_ReadReg(R0)  returns 0x00000000 (0000ms, 0365ms total)
T3CD0 007:161 JLINK_WriteMem(0x20000180, 0x0280 Bytes, ...) - Data: D9 F8 00 00 10 F0 00 7F 06 D1 FF F7 D1 FC 01 1B ... -- CPU_WriteMem(640 bytes @ 0x20000180)  returns 0x280 (0003ms, 0368ms total)
T3CD0 007:164 JLINK_WriteMem(0x20000400, 0x0180 Bytes, ...) - Data: 4F F0 0C 0C C0 E9 00 21 C0 E9 02 33 C0 E9 04 3C ... -- CPU_WriteMem(384 bytes @ 0x20000400)  returns 0x180 (0004ms, 0372ms total)
T3CD0 007:168 JLINK_WriteReg(R0, 0x08001400)  returns 0x00 (0000ms, 0372ms total)
T3CD0 007:168 JLINK_WriteReg(R1, 0x00000400)  returns 0x00 (0000ms, 0372ms total)
T3CD0 007:168 JLINK_WriteReg(R2, 0x20000180)  returns 0x00 (0000ms, 0372ms total)
T3CD0 007:168 JLINK_WriteReg(R3, 0x00000000)  returns 0x00 (0000ms, 0372ms total)
T3CD0 007:168 JLINK_WriteReg(R4, 0x00000000)  returns 0x00 (0000ms, 0372ms total)
T3CD0 007:168 JLINK_WriteReg(R5, 0x00000000)  returns 0x00 (0000ms, 0372ms total)
T3CD0 007:168 JLINK_WriteReg(R6, 0x00000000)  returns 0x00 (0000ms, 0372ms total)
T3CD0 007:168 JLINK_WriteReg(R7, 0x00000000)  returns 0x00 (0000ms, 0372ms total)
T3CD0 007:168 JLINK_WriteReg(R8, 0x00000000)  returns 0x00 (0000ms, 0372ms total)
T3CD0 007:168 JLINK_WriteReg(R9, 0x2000017C)  returns 0x00 (0000ms, 0372ms total)
T3CD0 007:168 JLINK_WriteReg(R10, 0x00000000)  returns 0x00 (0000ms, 0372ms total)
T3CD0 007:168 JLINK_WriteReg(R11, 0x00000000)  returns 0x00 (0000ms, 0372ms total)
T3CD0 007:168 JLINK_WriteReg(R12, 0x00000000)  returns 0x00 (0000ms, 0372ms total)
T3CD0 007:168 JLINK_WriteReg(R13 (SP), 0x20001000)  returns 0x00 (0000ms, 0372ms total)
T3CD0 007:168 JLINK_WriteReg(R14, 0x20000001)  returns 0x00 (0000ms, 0372ms total)
T3CD0 007:168 JLINK_WriteReg(R15 (PC), 0x20000108)  returns 0x00 (0000ms, 0372ms total)
T3CD0 007:168 JLINK_WriteReg(XPSR, 0x01000000)  returns 0x00 (0000ms, 0372ms total)
T3CD0 007:168 JLINK_WriteReg(MSP, 0x20001000)  returns 0x00 (0000ms, 0372ms total)
T3CD0 007:168 JLINK_WriteReg(PSP, 0x20001000)  returns 0x00 (0000ms, 0372ms total)
T3CD0 007:168 JLINK_WriteReg(CFBP, 0x00000000)  returns 0x00 (0000ms, 0372ms total)
T3CD0 007:168 JLINK_SetBPEx(Addr = 0x20000000, Type = 0xFFFFFFF2)  returns 0x0000000B (0000ms, 0372ms total)
T3CD0 007:168 JLINK_Go() -- CPU_ReadMem(4 bytes @ 0xE0001000) (0002ms, 0374ms total)
T3CD0 007:170 JLINK_IsHalted()  returns FALSE (0001ms, 0375ms total)
T3CD0 007:174 JLINK_IsHalted()  returns FALSE (0000ms, 0374ms total)
T3CD0 007:176 JLINK_IsHalted() -- CPU_ReadMem(2 bytes @ 0x20000000)  returns TRUE (0004ms, 0378ms total)
T3CD0 007:180 JLINK_ReadReg(R15 (PC))  returns 0x20000000 (0000ms, 0374ms total)
T3CD0 007:180 JLINK_ClrBPEx(BPHandle = 0x0000000B)  returns 0x00 (0000ms, 0374ms total)
T3CD0 007:180 JLINK_ReadReg(R0)  returns 0x00000000 (0000ms, 0374ms total)
T3CD0 007:181 JLINK_WriteMem(0x20000180, 0x0280 Bytes, ...) - Data: 93 FC 20 46 FF F7 E4 F9 13 B0 F0 BD 46 34 44 42 ... -- CPU_WriteMem(640 bytes @ 0x20000180)  returns 0x280 (0004ms, 0378ms total)
T3CD0 007:185 JLINK_WriteMem(0x20000400, 0x0180 Bytes, ...) - Data: 0A E0 A2 F1 D2 01 89 B2 AB 29 0E D8 AE F2 4F 11 ... -- CPU_WriteMem(384 bytes @ 0x20000400)  returns 0x180 (0002ms, 0380ms total)
T3CD0 007:187 JLINK_WriteReg(R0, 0x08001800)  returns 0x00 (0000ms, 0380ms total)
T3CD0 007:187 JLINK_WriteReg(R1, 0x00000400)  returns 0x00 (0000ms, 0380ms total)
T3CD0 007:187 JLINK_WriteReg(R2, 0x20000180)  returns 0x00 (0000ms, 0380ms total)
T3CD0 007:187 JLINK_WriteReg(R3, 0x00000000)  returns 0x00 (0000ms, 0380ms total)
T3CD0 007:187 JLINK_WriteReg(R4, 0x00000000)  returns 0x00 (0000ms, 0380ms total)
T3CD0 007:187 JLINK_WriteReg(R5, 0x00000000)  returns 0x00 (0000ms, 0380ms total)
T3CD0 007:187 JLINK_WriteReg(R6, 0x00000000)  returns 0x00 (0000ms, 0380ms total)
T3CD0 007:187 JLINK_WriteReg(R7, 0x00000000)  returns 0x00 (0000ms, 0380ms total)
T3CD0 007:187 JLINK_WriteReg(R8, 0x00000000)  returns 0x00 (0000ms, 0380ms total)
T3CD0 007:187 JLINK_WriteReg(R9, 0x2000017C)  returns 0x00 (0000ms, 0380ms total)
T3CD0 007:187 JLINK_WriteReg(R10, 0x00000000)  returns 0x00 (0000ms, 0380ms total)
T3CD0 007:187 JLINK_WriteReg(R11, 0x00000000)  returns 0x00 (0000ms, 0380ms total)
T3CD0 007:187 JLINK_WriteReg(R12, 0x00000000)  returns 0x00 (0000ms, 0380ms total)
T3CD0 007:187 JLINK_WriteReg(R13 (SP), 0x20001000)  returns 0x00 (0000ms, 0380ms total)
T3CD0 007:187 JLINK_WriteReg(R14, 0x20000001)  returns 0x00 (0000ms, 0380ms total)
T3CD0 007:187 JLINK_WriteReg(R15 (PC), 0x20000108)  returns 0x00 (0000ms, 0380ms total)
T3CD0 007:187 JLINK_WriteReg(XPSR, 0x01000000)  returns 0x00 (0000ms, 0380ms total)
T3CD0 007:187 JLINK_WriteReg(MSP, 0x20001000)  returns 0x00 (0000ms, 0380ms total)
T3CD0 007:187 JLINK_WriteReg(PSP, 0x20001000)  returns 0x00 (0000ms, 0380ms total)
T3CD0 007:187 JLINK_WriteReg(CFBP, 0x00000000)  returns 0x00 (0000ms, 0380ms total)
